T2814 1505:229 SEGGER J-Link V6.48b Log File (0000ms, 21941ms total)
T2814 1505:229 DLL Compiled: Aug  2 2019 10:18:25 (0000ms, 21941ms total)
T2814 1505:229 Logging started @ 2019-09-16 03:28 (0000ms, 21941ms total)
T2814 1505:229 JLINK_SetWarnOutHandler(...) (0000ms, 21941ms total)
T2814 1505:229 JLINK_OpenEx(...)
Firmware: J-Link OB-STM32F072-CortexM compiled Jan  7 2019 14:09:37
Hardware: V1.00
Feature(s): GDB, RDI, FlashBP, FlashDL, JFlash, RDDI
TELNET listener socket opened on port 19021WEBSRV 
Starting webserver (0031ms, 21972ms total)
T2814 1505:229 WEBSRV Webserver running on local port 19080 (0031ms, 21972ms total)
T2814 1505:229   returns O.K. (0031ms, 21972ms total)
T2814 1505:260 JLINK_GetEmuCaps()  returns 0xB8EA5A33 (0000ms, 21972ms total)
T2814 1505:261 JLINK_TIF_GetAvailable(...) (0000ms, 21972ms total)
T2814 1505:261 JLINK_SetErrorOutHandler(...) (0000ms, 21972ms total)
T2814 1505:261 JLINK_ExecCommand("ProjectFile = "C:\Users\ngoqu\Documents\GitHub\wiz500ntp\RCT6\JLinkSettings.ini"", ...).   returns 0x00 (0001ms, 21973ms total)
T2814 1505:264 JLINK_ExecCommand("Device = STM32F103RC", ...). Device "STM32F103RC" selected.  returns 0x00 (0003ms, 21976ms total)
T2814 1505:267 JLINK_ExecCommand("DisableConnectionTimeout", ...).   returns 0x01 (0000ms, 21976ms total)
T2814 1505:267 JLINK_GetHardwareVersion()  returns 0x2710 (0000ms, 21976ms total)
T2814 1505:267 JLINK_GetDLLVersion()  returns 64802 (0000ms, 21976ms total)
T2814 1505:267 JLINK_GetFirmwareString(...) (0000ms, 21976ms total)
T2814 1505:273 JLINK_GetDLLVersion()  returns 64802 (0000ms, 21976ms total)
T2814 1505:273 JLINK_GetCompileDateTime() (0000ms, 21976ms total)
T2814 1505:274 JLINK_GetFirmwareString(...) (0000ms, 21976ms total)
T2814 1505:275 JLINK_GetHardwareVersion()  returns 0x2710 (0000ms, 21976ms total)
T2814 1505:279 JLINK_TIF_Select(JLINKARM_TIF_SWD)  returns 0x00 (0002ms, 21978ms total)
T2814 1505:282 JLINK_SetSpeed(3000) (0001ms, 21980ms total)
T2814 1505:283 JLINK_GetId() >0x10B TIF>Found SW-DP with ID 0x1BA01477 >0x0D TIF> >0x28 TIF> >0x0D TIF> >0x28 TIF> >0x0D TIF> >0x28 TIF> >0x0D TIF> >0x28 TIF> >0x0D TIF> >0x21 TIF> >0x0D TIF> >0x28 TIF> >0x0D TIF> >0x28 TIF> >0x0D TIF> >0x28 TIF> >0x0D TIF> >0x21 TIF> >0x0D TIF> >0x21 TIF> >0x0D TIF> >0x28 TIF> >0x0D TIF> >0x21 TIF> >0x0D TIF> >0x21 TIF> >0x0D TIF> >0x28 TIF> >0x0D TIF> >0x21 TIF> >0x0D TIF> >0x21 TIF> >0x0D TIF> >0x28 TIF> >0x0D TIF> >0x21 TIF> >0x0D TIF> >0x21 TIF> >0x0D TIF>
 >0x28 TIF> >0x0D TIF> >0x21 TIF> >0x0D TIF> >0x21 TIF> >0x0D TIF> >0x28 TIF> >0x0D TIF> >0x21 TIF> >0x0D TIF> >0x21 TIF> >0x0D TIF> >0x28 TIF> >0x0D TIF> >0x21 TIF> >0x0D TIF> >0x21 TIF> >0x10B TIF>Found SW-DP with ID 0x1BA01477 >0x0D TIF> >0x28 TIF> >0x0D TIF> >0x28 TIF> >0x0D TIF> >0x28 TIF> >0x0D TIF> >0x28 TIF> >0x0D TIF> >0x21 TIF> >0x0D TIF> >0x28 TIF>Scanning AP map to find all available APs >0x0D TIF> >0x28 TIF> >0x0D TIF> >0x21 TIF> >0x0D TIF> >0x21 TIF> >0x0D TIF> >0x28 TIF> >0x0D TIF>
 >0x21 TIF> >0x0D TIF> >0x21 TIF>AP[1]: Stopped AP scan as end of AP map has been reachedAP[0]: AHB-AP (IDR: 0x14770011)Iterating through AP map to find AHB-AP to use >0x42 TIF> >0x28 TIF> >0x0D TIF> >0x28 TIF> >0x0D TIF> >0x21 TIF> >0x0D TIF> >0x21 TIF> >0x42 TIF> >0x28 TIF> >0x0D TIF> >0x28 TIF> >0x0D TIF> >0x28 TIF> >0x0D TIF> >0x21 TIF> >0x0D TIF> >0x21 TIF>AP[0]: Core foundAP[0]: AHB-AP ROM base: 0xE00FF000 >0x0D TIF> >0x28 TIF> >0x0D TIF> >0x28 TIF> >0x0D TIF> >0x28 TIF> >0x0D TIF> >0x21 TIF>
 >0x0D TIF> >0x21 TIF>CPUID register: 0x411FC231. Implementer code: 0x41 (ARM)Found Cortex-M3 r1p1, Little endian. -- Max. mem block: 0x00002458 -- CPU_ReadMem(4 bytes @ 0xE000EDF0) -- CPU_WriteMem(4 bytes @ 0xE000EDF0) -- CPU_ReadMem(4 bytes @ 0xE0002000)FPUnit: 6 code (BP) slots and 2 literal slots -- CPU_ReadMem(4 bytes @ 0xE000EDFC) -- CPU_WriteMem(4 bytes @ 0xE000EDFC) -- CPU_ReadMem(4 bytes @ 0xE0001000) -- CPU_WriteMem(4 bytes @ 0xE0001000) -- CPU_ReadMem(4 bytes @ 0xE000ED88)
 -- CPU_WriteMem(4 bytes @ 0xE000ED88) -- CPU_ReadMem(4 bytes @ 0xE000ED88) -- CPU_WriteMem(4 bytes @ 0xE000ED88)CoreSight components:ROMTbl[0] @ E00FF000 -- CPU_ReadMem(16 bytes @ 0xE00FF000) -- CPU_ReadMem(16 bytes @ 0xE000EFF0) -- CPU_ReadMem(16 bytes @ 0xE000EFE0)ROMTbl[0][0]: E000E000, CID: B105E00D, PID: 001BB000 SCS -- CPU_ReadMem(16 bytes @ 0xE0001FF0) -- CPU_ReadMem(16 bytes @ 0xE0001FE0)ROMTbl[0][1]: E0001000, CID: B105E00D, PID: 001BB002 DWT -- CPU_ReadMem(16 bytes @ 0xE0002FF0)
 -- CPU_ReadMem(16 bytes @ 0xE0002FE0)ROMTbl[0][2]: E0002000, CID: B105E00D, PID: 000BB003 FPB -- CPU_ReadMem(16 bytes @ 0xE0000FF0) -- CPU_ReadMem(16 bytes @ 0xE0000FE0)ROMTbl[0][3]: E0000000, CID: B105E00D, PID: 001BB001 ITM -- CPU_ReadMem(16 bytes @ 0xE00FF010) -- CPU_ReadMem(16 bytes @ 0xE0040FF0) -- CPU_ReadMem(16 bytes @ 0xE0040FE0)ROMTbl[0][4]: E0040000, CID: B105900D, PID: 001BB923 TPIU-Lite -- CPU_ReadMem(16 bytes @ 0xE0041FF0) -- CPU_ReadMem(16 bytes @ 0xE0041FE0)
ROMTbl[0][5]: E0041000, CID: B105900D, PID: 101BB924 ETM-M3 >0x0D TIF> >0x21 TIF>  returns 0x1BA01477 (0232ms, 22212ms total)
T2814 1505:515 JLINK_GetDLLVersion()  returns 64802 (0000ms, 22212ms total)
T2814 1505:515 JLINK_CORE_GetFound()  returns 0x30000FF (0000ms, 22212ms total)
T2814 1505:515 JLINK_GetDebugInfo(0x100 = JLINKARM_ROM_TABLE_ADDR_INDEX) -- Value=0xE00FF000  returns 0x00 (0000ms, 22212ms total)
T2814 1505:517 JLINK_GetDebugInfo(0x100 = JLINKARM_ROM_TABLE_ADDR_INDEX) -- Value=0xE00FF000  returns 0x00 (0000ms, 22212ms total)
T2814 1505:517 JLINK_GetDebugInfo(0x101 = JLINKARM_DEBUG_INFO_ETM_ADDR_INDEX) -- Value=0xE0041000  returns 0x00 (0000ms, 22212ms total)
T2814 1505:517 JLINK_ReadMemEx(0xE0041FD0, 0x0020 Bytes, ..., Flags = 0x02000004) -- CPU_ReadMem(32 bytes @ 0xE0041FD0) - Data: 04 00 00 00 00 00 00 00 00 00 00 00 00 00 00 00 ...  returns 0x20 (0002ms, 22214ms total)
T2814 1505:519 JLINK_GetDebugInfo(0x102 = JLINKARM_DEBUG_INFO_MTB_ADDR_INDEX) -- Value=0x00000000  returns 0x00 (0000ms, 22214ms total)
T2814 1505:519 JLINK_GetDebugInfo(0x103 = JLINKARM_DEBUG_INFO_TPIU_ADDR_INDEX) -- Value=0xE0040000  returns 0x00 (0000ms, 22214ms total)
T2814 1505:519 JLINK_GetDebugInfo(0x104 = JLINKARM_DEBUG_INFO_ITM_ADDR_INDEX) -- Value=0xE0000000  returns 0x00 (0000ms, 22214ms total)
T2814 1505:519 JLINK_GetDebugInfo(0x105 = JLINKARM_DEBUG_INFO_DWT_ADDR_INDEX) -- Value=0xE0001000  returns 0x00 (0000ms, 22214ms total)
T2814 1505:519 JLINK_GetDebugInfo(0x106 = JLINKARM_DEBUG_INFO_FPB_ADDR_INDEX) -- Value=0xE0002000  returns 0x00 (0000ms, 22214ms total)
T2814 1505:519 JLINK_GetDebugInfo(0x107 = JLINKARM_DEBUG_INFO_NVIC_ADDR_INDEX) -- Value=0xE000E000  returns 0x00 (0000ms, 22214ms total)
T2814 1505:519 JLINK_GetDebugInfo(0x10C = JLINKARM_DEBUG_INFO_DBG_ADDR_INDEX) -- Value=0xE000EDF0  returns 0x00 (0000ms, 22214ms total)
T2814 1505:519 JLINK_GetDebugInfo(0x01 = Unknown) -- Value=0x00000000  returns 0x00 (0000ms, 22214ms total)
T2814 1505:519 JLINK_ReadMemU32(0xE000ED00, 0x0001 Items, ...) -- CPU_ReadMem(4 bytes @ 0xE000ED00) - Data: 31 C2 1F 41  returns 1 (0001ms, 22215ms total)
T2814 1505:520 JLINK_GetDebugInfo(0x10F = JLINKARM_DEBUG_INFO_HAS_CORTEX_M_SECURITY_EXT_INDEX) -- Value=0x00000000  returns 0x00 (0000ms, 22215ms total)
T2814 1505:520 JLINK_SetResetType(JLINKARM_CM3_RESET_TYPE_NORMAL)  returns JLINKARM_CM3_RESET_TYPE_NORMAL (0000ms, 22215ms total)
T2814 1505:520 JLINK_Reset() -- CPU is running -- CPU_WriteMem(4 bytes @ 0xE000EDF0) -- CPU is running -- CPU_WriteMem(4 bytes @ 0xE000EDFC)Reset: Halt core after reset via DEMCR.VC_CORERESET. >0x35 TIF>Reset: Reset device via AIRCR.SYSRESETREQ. -- CPU is running -- CPU_WriteMem(4 bytes @ 0xE000ED0C) >0x0D TIF> >0x28 TIF> -- CPU_ReadMem(4 bytes @ 0xE000EDF0) -- CPU_ReadMem(4 bytes @ 0xE000EDF0) -- CPU is running -- CPU_WriteMem(4 bytes @ 0xE000EDF0) -- CPU is running -- CPU_WriteMem(4 bytes @ 0xE000EDFC)
 -- CPU_ReadMem(4 bytes @ 0xE000EDF0) -- CPU_WriteMem(4 bytes @ 0xE0002000) -- CPU_ReadMem(4 bytes @ 0xE000EDFC) -- CPU_ReadMem(4 bytes @ 0xE0001000) (0085ms, 22300ms total)
T2814 1505:605 JLINK_Halt()  returns 0x00 (0000ms, 22300ms total)
T2814 1505:605 JLINK_ReadMemU32(0xE000EDF0, 0x0001 Items, ...) -- CPU_ReadMem(4 bytes @ 0xE000EDF0) - Data: 03 00 03 00  returns 1 (0001ms, 22301ms total)
T2814 1505:606 JLINK_WriteU32(0xE000EDF0, 0xA05F0003) -- CPU_WriteMem(4 bytes @ 0xE000EDF0)  returns 0 (0002ms, 22303ms total)
T2814 1505:608 JLINK_WriteU32(0xE000EDFC, 0x01000000) -- CPU_WriteMem(4 bytes @ 0xE000EDFC)  returns 0 (0001ms, 22304ms total)
T2814 1505:627 JLINK_GetHWStatus(...)  returns 0x00 (0000ms, 22304ms total)
T2814 1505:636 JLINK_GetNumBPUnits(Type = 0xFFFFFF00)  returns 0x06 (0000ms, 22304ms total)
T2814 1505:636 JLINK_GetNumBPUnits(Type = 0xF0)  returns 0x2000 (0000ms, 22304ms total)
T2814 1505:636 JLINK_GetNumWPUnits()  returns 0x04 (0000ms, 22304ms total)
T2814 1505:642 JLINK_GetSpeed()  returns 0x7D0 (0000ms, 22304ms total)
T2814 1505:645 JLINK_ReadMemU32(0xE000E004, 0x0001 Items, ...) -- CPU_ReadMem(4 bytes @ 0xE000E004) - Data: 01 00 00 00  returns 1 (0002ms, 22306ms total)
T2814 1505:647 JLINK_ReadMemU32(0xE000E004, 0x0001 Items, ...) -- CPU_ReadMem(4 bytes @ 0xE000E004) - Data: 01 00 00 00  returns 1 (0001ms, 22307ms total)
T2814 1505:648 JLINK_WriteMemEx(0xE0001000, 0x001C Bytes, ..., Flags = 0x02000004) - Data: 01 00 00 00 00 00 00 00 00 00 00 00 00 00 00 00 ... -- CPU_WriteMem(28 bytes @ 0xE0001000)  returns 0x1C (0001ms, 22308ms total)
T2814 1505:649 JLINK_Halt()  returns 0x00 (0001ms, 22309ms total)
T2814 1505:650 JLINK_IsHalted()  returns TRUE (0000ms, 22309ms total)
T2814 1505:652 JLINK_WriteMem(0x20000000, 0x0164 Bytes, ...) - Data: 00 BE 0A E0 0D 78 2D 06 68 40 08 24 40 00 00 D3 ... -- CPU_WriteMem(356 bytes @ 0x20000000)  returns 0x164 (0005ms, 22314ms total)
T2814 1505:657 JLINK_WriteReg(R0, 0x08000000)  returns 0x00 (0000ms, 22314ms total)
T2814 1505:657 JLINK_WriteReg(R1, 0x00B71B00)  returns 0x00 (0000ms, 22314ms total)
T2814 1505:657 JLINK_WriteReg(R2, 0x00000001)  returns 0x00 (0000ms, 22314ms total)
T2814 1505:657 JLINK_WriteReg(R3, 0x00000000)  returns 0x00 (0000ms, 22314ms total)
T2814 1505:657 JLINK_WriteReg(R4, 0x00000000)  returns 0x00 (0000ms, 22314ms total)
T2814 1505:657 JLINK_WriteReg(R5, 0x00000000)  returns 0x00 (0000ms, 22314ms total)
T2814 1505:657 JLINK_WriteReg(R6, 0x00000000)  returns 0x00 (0000ms, 22314ms total)
T2814 1505:657 JLINK_WriteReg(R7, 0x00000000)  returns 0x00 (0000ms, 22314ms total)
T2814 1505:657 JLINK_WriteReg(R8, 0x00000000)  returns 0x00 (0000ms, 22314ms total)
T2814 1505:657 JLINK_WriteReg(R9, 0x20000160)  returns 0x00 (0000ms, 22314ms total)
T2814 1505:657 JLINK_WriteReg(R10, 0x00000000)  returns 0x00 (0000ms, 22314ms total)
T2814 1505:657 JLINK_WriteReg(R11, 0x00000000)  returns 0x00 (0000ms, 22314ms total)
T2814 1505:657 JLINK_WriteReg(R12, 0x00000000)  returns 0x00 (0000ms, 22314ms total)
T2814 1505:657 JLINK_WriteReg(R13 (SP), 0x20001000)  returns 0x00 (0000ms, 22314ms total)
T2814 1505:657 JLINK_WriteReg(R14, 0x20000001)  returns 0x00 (0000ms, 22314ms total)
T2814 1505:657 JLINK_WriteReg(R15 (PC), 0x20000038)  returns 0x00 (0000ms, 22314ms total)
T2814 1505:657 JLINK_WriteReg(XPSR, 0x01000000)  returns 0x00 (0000ms, 22314ms total)
T2814 1505:657 JLINK_WriteReg(MSP, 0x20001000)  returns 0x00 (0000ms, 22314ms total)
T2814 1505:657 JLINK_WriteReg(PSP, 0x20001000)  returns 0x00 (0000ms, 22314ms total)
T2814 1505:657 JLINK_WriteReg(CFBP, 0x00000000)  returns 0x00 (0000ms, 22314ms total)
T2814 1505:657 JLINK_SetBPEx(Addr = 0x20000000, Type = 0xFFFFFFF2) -- CPU_ReadMem(2 bytes @ 0x20000000)  returns 0x00000001 (0002ms, 22316ms total)
T2814 1505:659 JLINK_Go() -- CPU_WriteMem(2 bytes @ 0x20000000) -- CPU_ReadMem(4 bytes @ 0xE0001000) -- CPU_WriteMem(4 bytes @ 0xE0002008) -- CPU_WriteMem(4 bytes @ 0xE000200C) -- CPU_WriteMem(4 bytes @ 0xE0002010) -- CPU_WriteMem(4 bytes @ 0xE0002014) -- CPU_WriteMem(4 bytes @ 0xE0002018) -- CPU_WriteMem(4 bytes @ 0xE000201C) -- CPU_WriteMem(4 bytes @ 0xE0001004) (0013ms, 22329ms total)
T2814 1505:672 JLINK_IsHalted() -- CPU_ReadMem(2 bytes @ 0x20000000)  returns TRUE (0006ms, 22335ms total)
T2814 1505:678 JLINK_ReadReg(R15 (PC))  returns 0x20000000 (0000ms, 22329ms total)
T2814 1505:678 JLINK_ClrBPEx(BPHandle = 0x00000001)  returns 0x00 (0000ms, 22329ms total)
T2814 1505:678 JLINK_ReadReg(R0)  returns 0x00000000 (0000ms, 22329ms total)
T2814 1505:678 JLINK_WriteReg(R0, 0x08000000)  returns 0x00 (0000ms, 22329ms total)
T2814 1505:678 JLINK_WriteReg(R1, 0x00B71B00)  returns 0x00 (0000ms, 22329ms total)
T2814 1505:678 JLINK_WriteReg(R2, 0x00000001)  returns 0x00 (0000ms, 22329ms total)
T2814 1505:678 JLINK_WriteReg(R3, 0x00000000)  returns 0x00 (0000ms, 22329ms total)
T2814 1505:678 JLINK_WriteReg(R4, 0x00000000)  returns 0x00 (0000ms, 22329ms total)
T2814 1505:678 JLINK_WriteReg(R5, 0x00000000)  returns 0x00 (0000ms, 22329ms total)
T2814 1505:678 JLINK_WriteReg(R6, 0x00000000)  returns 0x00 (0000ms, 22329ms total)
T2814 1505:678 JLINK_WriteReg(R7, 0x00000000)  returns 0x00 (0000ms, 22329ms total)
T2814 1505:678 JLINK_WriteReg(R8, 0x00000000)  returns 0x00 (0000ms, 22329ms total)
T2814 1505:678 JLINK_WriteReg(R9, 0x20000160)  returns 0x00 (0000ms, 22329ms total)
T2814 1505:678 JLINK_WriteReg(R10, 0x00000000)  returns 0x00 (0000ms, 22329ms total)
T2814 1505:678 JLINK_WriteReg(R11, 0x00000000)  returns 0x00 (0000ms, 22329ms total)
T2814 1505:678 JLINK_WriteReg(R12, 0x00000000)  returns 0x00 (0000ms, 22329ms total)
T2814 1505:678 JLINK_WriteReg(R13 (SP), 0x20001000)  returns 0x00 (0000ms, 22329ms total)
T2814 1505:678 JLINK_WriteReg(R14, 0x20000001)  returns 0x00 (0000ms, 22329ms total)
T2814 1505:678 JLINK_WriteReg(R15 (PC), 0x2000007C)  returns 0x00 (0000ms, 22329ms total)
T2814 1505:678 JLINK_WriteReg(XPSR, 0x01000000)  returns 0x00 (0000ms, 22329ms total)
T2814 1505:678 JLINK_WriteReg(MSP, 0x20001000)  returns 0x00 (0000ms, 22329ms total)
T2814 1505:678 JLINK_WriteReg(PSP, 0x20001000)  returns 0x00 (0000ms, 22329ms total)
T2814 1505:678 JLINK_WriteReg(CFBP, 0x00000000)  returns 0x00 (0000ms, 22329ms total)
T2814 1505:678 JLINK_SetBPEx(Addr = 0x20000000, Type = 0xFFFFFFF2)  returns 0x00000002 (0000ms, 22329ms total)
T2814 1505:678 JLINK_Go() -- CPU_ReadMem(4 bytes @ 0xE0001000) (0008ms, 22337ms total)
T2814 1505:686 JLINK_IsHalted()  returns FALSE (0001ms, 22338ms total)
T2814 1505:718 JLINK_IsHalted() -- CPU_ReadMem(2 bytes @ 0x20000000)  returns TRUE (0007ms, 22344ms total)
T2814 1505:725 JLINK_ReadReg(R15 (PC))  returns 0x20000000 (0000ms, 22337ms total)
T2814 1505:725 JLINK_ClrBPEx(BPHandle = 0x00000002)  returns 0x00 (0000ms, 22337ms total)
T2814 1505:725 JLINK_ReadReg(R0)  returns 0x00000000 (0000ms, 22337ms total)
T2814 1505:777 JLINK_WriteReg(R0, 0x00000001)  returns 0x00 (0000ms, 22337ms total)
T2814 1505:777 JLINK_WriteReg(R1, 0x00B71B00)  returns 0x00 (0000ms, 22337ms total)
T2814 1505:777 JLINK_WriteReg(R2, 0x00000001)  returns 0x00 (0000ms, 22337ms total)
T2814 1505:777 JLINK_WriteReg(R3, 0x00000000)  returns 0x00 (0000ms, 22337ms total)
T2814 1505:777 JLINK_WriteReg(R4, 0x00000000)  returns 0x00 (0000ms, 22337ms total)
T2814 1505:777 JLINK_WriteReg(R5, 0x00000000)  returns 0x00 (0000ms, 22337ms total)
T2814 1505:777 JLINK_WriteReg(R6, 0x00000000)  returns 0x00 (0000ms, 22337ms total)
T2814 1505:777 JLINK_WriteReg(R7, 0x00000000)  returns 0x00 (0000ms, 22337ms total)
T2814 1505:777 JLINK_WriteReg(R8, 0x00000000)  returns 0x00 (0000ms, 22337ms total)
T2814 1505:777 JLINK_WriteReg(R9, 0x20000160)  returns 0x00 (0000ms, 22337ms total)
T2814 1505:777 JLINK_WriteReg(R10, 0x00000000)  returns 0x00 (0000ms, 22337ms total)
T2814 1505:777 JLINK_WriteReg(R11, 0x00000000)  returns 0x00 (0000ms, 22337ms total)
T2814 1505:777 JLINK_WriteReg(R12, 0x00000000)  returns 0x00 (0000ms, 22337ms total)
T2814 1505:777 JLINK_WriteReg(R13 (SP), 0x20001000)  returns 0x00 (0000ms, 22337ms total)
T2814 1505:777 JLINK_WriteReg(R14, 0x20000001)  returns 0x00 (0000ms, 22337ms total)
T2814 1505:777 JLINK_WriteReg(R15 (PC), 0x2000006A)  returns 0x00 (0000ms, 22337ms total)
T2814 1505:777 JLINK_WriteReg(XPSR, 0x01000000)  returns 0x00 (0000ms, 22337ms total)
T2814 1505:777 JLINK_WriteReg(MSP, 0x20001000)  returns 0x00 (0000ms, 22337ms total)
T2814 1505:777 JLINK_WriteReg(PSP, 0x20001000)  returns 0x00 (0000ms, 22337ms total)
T2814 1505:777 JLINK_WriteReg(CFBP, 0x00000000)  returns 0x00 (0000ms, 22337ms total)
T2814 1505:777 JLINK_SetBPEx(Addr = 0x20000000, Type = 0xFFFFFFF2)  returns 0x00000003 (0000ms, 22337ms total)
T2814 1505:777 JLINK_Go() -- CPU_ReadMem(4 bytes @ 0xE0001000) (0007ms, 22344ms total)
T2814 1505:784 JLINK_IsHalted() -- CPU_ReadMem(2 bytes @ 0x20000000)  returns TRUE (0006ms, 22350ms total)
T2814 1505:790 JLINK_ReadReg(R15 (PC))  returns 0x20000000 (0001ms, 22345ms total)
T2814 1505:791 JLINK_ClrBPEx(BPHandle = 0x00000003)  returns 0x00 (0000ms, 22345ms total)
T2814 1505:791 JLINK_ReadReg(R0)  returns 0x00000000 (0000ms, 22345ms total)
T2814 1505:800 JLINK_WriteMem(0x20000000, 0x0164 Bytes, ...) - Data: 00 BE 0A E0 0D 78 2D 06 68 40 08 24 40 00 00 D3 ... -- CPU_WriteMem(356 bytes @ 0x20000000)  returns 0x164 (0004ms, 22349ms total)
T2814 1505:804 JLINK_WriteReg(R0, 0x08000000)  returns 0x00 (0000ms, 22349ms total)
T2814 1505:804 JLINK_WriteReg(R1, 0x00B71B00)  returns 0x00 (0000ms, 22349ms total)
T2814 1505:804 JLINK_WriteReg(R2, 0x00000002)  returns 0x00 (0001ms, 22350ms total)
T2814 1505:805 JLINK_WriteReg(R3, 0x00000000)  returns 0x00 (0000ms, 22350ms total)
T2814 1505:805 JLINK_WriteReg(R4, 0x00000000)  returns 0x00 (0000ms, 22350ms total)
T2814 1505:805 JLINK_WriteReg(R5, 0x00000000)  returns 0x00 (0000ms, 22350ms total)
T2814 1505:805 JLINK_WriteReg(R6, 0x00000000)  returns 0x00 (0000ms, 22350ms total)
T2814 1505:805 JLINK_WriteReg(R7, 0x00000000)  returns 0x00 (0000ms, 22350ms total)
T2814 1505:805 JLINK_WriteReg(R8, 0x00000000)  returns 0x00 (0000ms, 22350ms total)
T2814 1505:805 JLINK_WriteReg(R9, 0x20000160)  returns 0x00 (0000ms, 22350ms total)
T2814 1505:805 JLINK_WriteReg(R10, 0x00000000)  returns 0x00 (0000ms, 22350ms total)
T2814 1505:805 JLINK_WriteReg(R11, 0x00000000)  returns 0x00 (0000ms, 22350ms total)
T2814 1505:805 JLINK_WriteReg(R12, 0x00000000)  returns 0x00 (0000ms, 22350ms total)
T2814 1505:805 JLINK_WriteReg(R13 (SP), 0x20001000)  returns 0x00 (0000ms, 22350ms total)
T2814 1505:805 JLINK_WriteReg(R14, 0x20000001)  returns 0x00 (0000ms, 22350ms total)
T2814 1505:805 JLINK_WriteReg(R15 (PC), 0x20000038)  returns 0x00 (0000ms, 22350ms total)
T2814 1505:805 JLINK_WriteReg(XPSR, 0x01000000)  returns 0x00 (0000ms, 22350ms total)
T2814 1505:805 JLINK_WriteReg(MSP, 0x20001000)  returns 0x00 (0000ms, 22350ms total)
T2814 1505:805 JLINK_WriteReg(PSP, 0x20001000)  returns 0x00 (0000ms, 22350ms total)
T2814 1505:805 JLINK_WriteReg(CFBP, 0x00000000)  returns 0x00 (0000ms, 22350ms total)
T2814 1505:805 JLINK_SetBPEx(Addr = 0x20000000, Type = 0xFFFFFFF2) -- CPU_ReadMem(2 bytes @ 0x20000000)  returns 0x00000004 (0001ms, 22351ms total)
T2814 1505:806 JLINK_Go() -- CPU_WriteMem(2 bytes @ 0x20000000) -- CPU_ReadMem(4 bytes @ 0xE0001000) (0009ms, 22360ms total)
T2814 1505:815 JLINK_IsHalted() -- CPU_ReadMem(2 bytes @ 0x20000000)  returns TRUE (0008ms, 22368ms total)
T2814 1505:823 JLINK_ReadReg(R15 (PC))  returns 0x20000000 (0000ms, 22360ms total)
T2814 1505:823 JLINK_ClrBPEx(BPHandle = 0x00000004)  returns 0x00 (0000ms, 22360ms total)
T2814 1505:823 JLINK_ReadReg(R0)  returns 0x00000000 (0000ms, 22360ms total)
T2814 1505:824 JLINK_WriteMem(0x20000164, 0x029C Bytes, ...) - Data: 38 2B 00 20 45 01 00 08 59 18 00 08 91 17 00 08 ... -- CPU_WriteMem(668 bytes @ 0x20000164)  returns 0x29C (0007ms, 22367ms total)
T2814 1505:831 JLINK_WriteMem(0x20000400, 0x0164 Bytes, ...) - Data: 49 1C 52 1E F8 D2 20 46 10 BD CA B2 40 1E 10 F8 ... -- CPU_WriteMem(356 bytes @ 0x20000400)  returns 0x164 (0005ms, 22372ms total)
T2814 1505:836 JLINK_WriteReg(R0, 0x08000000)  returns 0x00 (0000ms, 22372ms total)
T2814 1505:836 JLINK_WriteReg(R1, 0x00000400)  returns 0x00 (0000ms, 22372ms total)
T2814 1505:836 JLINK_WriteReg(R2, 0x20000164)  returns 0x00 (0000ms, 22372ms total)
T2814 1505:836 JLINK_WriteReg(R3, 0x00000000)  returns 0x00 (0000ms, 22372ms total)
T2814 1505:836 JLINK_WriteReg(R4, 0x00000000)  returns 0x00 (0000ms, 22372ms total)
T2814 1505:836 JLINK_WriteReg(R5, 0x00000000)  returns 0x00 (0001ms, 22373ms total)
T2814 1505:837 JLINK_WriteReg(R6, 0x00000000)  returns 0x00 (0000ms, 22373ms total)
T2814 1505:837 JLINK_WriteReg(R7, 0x00000000)  returns 0x00 (0000ms, 22373ms total)
T2814 1505:837 JLINK_WriteReg(R8, 0x00000000)  returns 0x00 (0000ms, 22373ms total)
T2814 1505:837 JLINK_WriteReg(R9, 0x20000160)  returns 0x00 (0000ms, 22373ms total)
T2814 1505:837 JLINK_WriteReg(R10, 0x00000000)  returns 0x00 (0000ms, 22373ms total)
T2814 1505:837 JLINK_WriteReg(R11, 0x00000000)  returns 0x00 (0000ms, 22373ms total)
T2814 1505:837 JLINK_WriteReg(R12, 0x00000000)  returns 0x00 (0000ms, 22373ms total)
T2814 1505:837 JLINK_WriteReg(R13 (SP), 0x20001000)  returns 0x00 (0000ms, 22373ms total)
T2814 1505:837 JLINK_WriteReg(R14, 0x20000001)  returns 0x00 (0000ms, 22373ms total)
T2814 1505:837 JLINK_WriteReg(R15 (PC), 0x200000F4)  returns 0x00 (0000ms, 22373ms total)
T2814 1505:837 JLINK_WriteReg(XPSR, 0x01000000)  returns 0x00 (0000ms, 22373ms total)
T2814 1505:837 JLINK_WriteReg(MSP, 0x20001000)  returns 0x00 (0000ms, 22373ms total)
T2814 1505:837 JLINK_WriteReg(PSP, 0x20001000)  returns 0x00 (0000ms, 22373ms total)
T2814 1505:837 JLINK_WriteReg(CFBP, 0x00000000)  returns 0x00 (0000ms, 22373ms total)
T2814 1505:837 JLINK_SetBPEx(Addr = 0x20000000, Type = 0xFFFFFFF2)  returns 0x00000005 (0000ms, 22373ms total)
T2814 1505:837 JLINK_Go() -- CPU_ReadMem(4 bytes @ 0xE0001000) (0007ms, 22380ms total)
T2814 1505:844 JLINK_IsHalted()  returns FALSE (0001ms, 22381ms total)
T2814 1505:858 JLINK_IsHalted()  returns FALSE (0001ms, 22381ms total)
T2814 1505:863 JLINK_IsHalted()  returns FALSE (0002ms, 22382ms total)
T2814 1505:866 JLINK_IsHalted()  returns FALSE (0001ms, 22381ms total)
T2814 1505:869 JLINK_IsHalted()  returns FALSE (0001ms, 22381ms total)
T2814 1505:873 JLINK_IsHalted()  returns FALSE (0001ms, 22381ms total)
T2814 1505:876 JLINK_IsHalted() -- CPU_ReadMem(2 bytes @ 0x20000000)  returns TRUE (0006ms, 22386ms total)
T2814 1505:882 JLINK_ReadReg(R15 (PC))  returns 0x20000000 (0000ms, 22380ms total)
T2814 1505:882 JLINK_ClrBPEx(BPHandle = 0x00000005)  returns 0x00 (0000ms, 22380ms total)
T2814 1505:882 JLINK_ReadReg(R0)  returns 0x00000000 (0000ms, 22380ms total)
T2814 1505:883 JLINK_WriteMem(0x20000164, 0x029C Bytes, ...) - Data: 51 46 E7 FB 02 01 C5 F3 13 04 4F EA 0B 33 43 EA ... -- CPU_WriteMem(668 bytes @ 0x20000164)  returns 0x29C (0009ms, 22389ms total)
T2814 1505:892 JLINK_WriteMem(0x20000400, 0x0164 Bytes, ...) - Data: 98 47 10 34 AC 42 F6 D3 FF F7 48 FD 8C E2 00 08 ... -- CPU_WriteMem(356 bytes @ 0x20000400)  returns 0x164 (0005ms, 22394ms total)
T2814 1505:897 JLINK_WriteReg(R0, 0x08000400)  returns 0x00 (0000ms, 22394ms total)
T2814 1505:897 JLINK_WriteReg(R1, 0x00000400)  returns 0x00 (0000ms, 22394ms total)
T2814 1505:897 JLINK_WriteReg(R2, 0x20000164)  returns 0x00 (0000ms, 22394ms total)
T2814 1505:897 JLINK_WriteReg(R3, 0x00000000)  returns 0x00 (0000ms, 22394ms total)
T2814 1505:897 JLINK_WriteReg(R4, 0x00000000)  returns 0x00 (0000ms, 22394ms total)
T2814 1505:897 JLINK_WriteReg(R5, 0x00000000)  returns 0x00 (0000ms, 22394ms total)
T2814 1505:897 JLINK_WriteReg(R6, 0x00000000)  returns 0x00 (0000ms, 22394ms total)
T2814 1505:897 JLINK_WriteReg(R7, 0x00000000)  returns 0x00 (0000ms, 22394ms total)
T2814 1505:897 JLINK_WriteReg(R8, 0x00000000)  returns 0x00 (0000ms, 22394ms total)
T2814 1505:897 JLINK_WriteReg(R9, 0x20000160)  returns 0x00 (0000ms, 22394ms total)
T2814 1505:897 JLINK_WriteReg(R10, 0x00000000)  returns 0x00 (0000ms, 22394ms total)
T2814 1505:897 JLINK_WriteReg(R11, 0x00000000)  returns 0x00 (0000ms, 22394ms total)
T2814 1505:897 JLINK_WriteReg(R12, 0x00000000)  returns 0x00 (0000ms, 22394ms total)
T2814 1505:897 JLINK_WriteReg(R13 (SP), 0x20001000)  returns 0x00 (0000ms, 22394ms total)
T2814 1505:897 JLINK_WriteReg(R14, 0x20000001)  returns 0x00 (0000ms, 22394ms total)
T2814 1505:897 JLINK_WriteReg(R15 (PC), 0x200000F4)  returns 0x00 (0000ms, 22394ms total)
T2814 1505:897 JLINK_WriteReg(XPSR, 0x01000000)  returns 0x00 (0000ms, 22394ms total)
T2814 1505:897 JLINK_WriteReg(MSP, 0x20001000)  returns 0x00 (0000ms, 22394ms total)
T2814 1505:897 JLINK_WriteReg(PSP, 0x20001000)  returns 0x00 (0000ms, 22394ms total)
T2814 1505:897 JLINK_WriteReg(CFBP, 0x00000000)  returns 0x00 (0000ms, 22394ms total)
T2814 1505:897 JLINK_SetBPEx(Addr = 0x20000000, Type = 0xFFFFFFF2)  returns 0x00000006 (0000ms, 22394ms total)
T2814 1505:897 JLINK_Go() -- CPU_ReadMem(4 bytes @ 0xE0001000) (0006ms, 22400ms total)
T2814 1505:903 JLINK_IsHalted()  returns FALSE (0002ms, 22402ms total)
T2814 1505:912 JLINK_IsHalted()  returns FALSE (0000ms, 22400ms total)
T2814 1505:914 JLINK_IsHalted()  returns FALSE (0001ms, 22401ms total)
T2814 1505:920 JLINK_IsHalted()  returns FALSE (0002ms, 22402ms total)
T2814 1505:924 JLINK_IsHalted()  returns FALSE (0001ms, 22401ms total)
T2814 1505:930 JLINK_IsHalted()  returns FALSE (0001ms, 22401ms total)
T2814 1505:933 JLINK_IsHalted()  returns FALSE (0001ms, 22401ms total)
T2814 1505:937 JLINK_IsHalted() -- CPU_ReadMem(2 bytes @ 0x20000000)  returns TRUE (0006ms, 22406ms total)
T2814 1505:943 JLINK_ReadReg(R15 (PC))  returns 0x20000000 (0000ms, 22400ms total)
T2814 1505:943 JLINK_ClrBPEx(BPHandle = 0x00000006)  returns 0x00 (0000ms, 22400ms total)
T2814 1505:943 JLINK_ReadReg(R0)  returns 0x00000000 (0000ms, 22400ms total)
T2814 1505:944 JLINK_WriteMem(0x20000164, 0x029C Bytes, ...) - Data: 70 47 00 00 10 B5 05 48 00 68 C0 F3 03 34 20 03 ... -- CPU_WriteMem(668 bytes @ 0x20000164)  returns 0x29C (0008ms, 22408ms total)
T2814 1505:952 JLINK_WriteMem(0x20000400, 0x0164 Bytes, ...) - Data: 1A 68 02 EA 01 03 0B B1 01 20 00 E0 00 20 70 47 ... -- CPU_WriteMem(356 bytes @ 0x20000400)  returns 0x164 (0004ms, 22412ms total)
T2814 1505:956 JLINK_WriteReg(R0, 0x08000800)  returns 0x00 (0000ms, 22412ms total)
T2814 1505:956 JLINK_WriteReg(R1, 0x00000400)  returns 0x00 (0000ms, 22412ms total)
T2814 1505:956 JLINK_WriteReg(R2, 0x20000164)  returns 0x00 (0000ms, 22412ms total)
T2814 1505:956 JLINK_WriteReg(R3, 0x00000000)  returns 0x00 (0000ms, 22412ms total)
T2814 1505:956 JLINK_WriteReg(R4, 0x00000000)  returns 0x00 (0000ms, 22412ms total)
T2814 1505:956 JLINK_WriteReg(R5, 0x00000000)  returns 0x00 (0000ms, 22412ms total)
T2814 1505:956 JLINK_WriteReg(R6, 0x00000000)  returns 0x00 (0000ms, 22412ms total)
T2814 1505:956 JLINK_WriteReg(R7, 0x00000000)  returns 0x00 (0000ms, 22412ms total)
T2814 1505:956 JLINK_WriteReg(R8, 0x00000000)  returns 0x00 (0000ms, 22412ms total)
T2814 1505:956 JLINK_WriteReg(R9, 0x20000160)  returns 0x00 (0001ms, 22413ms total)
T2814 1505:957 JLINK_WriteReg(R10, 0x00000000)  returns 0x00 (0000ms, 22413ms total)
T2814 1505:957 JLINK_WriteReg(R11, 0x00000000)  returns 0x00 (0000ms, 22413ms total)
T2814 1505:957 JLINK_WriteReg(R12, 0x00000000)  returns 0x00 (0000ms, 22413ms total)
T2814 1505:957 JLINK_WriteReg(R13 (SP), 0x20001000)  returns 0x00 (0000ms, 22413ms total)
T2814 1505:957 JLINK_WriteReg(R14, 0x20000001)  returns 0x00 (0000ms, 22413ms total)
T2814 1505:957 JLINK_WriteReg(R15 (PC), 0x200000F4)  returns 0x00 (0000ms, 22413ms total)
T2814 1505:957 JLINK_WriteReg(XPSR, 0x01000000)  returns 0x00 (0000ms, 22413ms total)
T2814 1505:957 JLINK_WriteReg(MSP, 0x20001000)  returns 0x00 (0000ms, 22413ms total)
T2814 1505:957 JLINK_WriteReg(PSP, 0x20001000)  returns 0x00 (0000ms, 22413ms total)
T2814 1505:957 JLINK_WriteReg(CFBP, 0x00000000)  returns 0x00 (0000ms, 22413ms total)
T2814 1505:957 JLINK_SetBPEx(Addr = 0x20000000, Type = 0xFFFFFFF2)  returns 0x00000007 (0000ms, 22413ms total)
T2814 1505:957 JLINK_Go() -- CPU_ReadMem(4 bytes @ 0xE0001000) (0007ms, 22420ms total)
T2814 1505:964 JLINK_IsHalted()  returns FALSE (0001ms, 22421ms total)
T2814 1505:969 JLINK_IsHalted()  returns FALSE (0001ms, 22421ms total)
T2814 1505:972 JLINK_IsHalted()  returns FALSE (0001ms, 22421ms total)
T2814 1505:975 JLINK_IsHalted()  returns FALSE (0001ms, 22421ms total)
T2814 1505:978 JLINK_IsHalted()  returns FALSE (0001ms, 22421ms total)
T2814 1505:983 JLINK_IsHalted()  returns FALSE (0001ms, 22421ms total)
T2814 1505:985 JLINK_IsHalted()  returns FALSE (0000ms, 22420ms total)
T2814 1505:987 JLINK_IsHalted()  returns FALSE (0001ms, 22421ms total)
T2814 1505:990 JLINK_IsHalted()  returns FALSE (0001ms, 22421ms total)
T2814 1505:994 JLINK_IsHalted() -- CPU_ReadMem(2 bytes @ 0x20000000)  returns TRUE (0006ms, 22426ms total)
T2814 1506:000 JLINK_ReadReg(R15 (PC))  returns 0x20000000 (0000ms, 22420ms total)
T2814 1506:000 JLINK_ClrBPEx(BPHandle = 0x00000007)  returns 0x00 (0000ms, 22420ms total)
T2814 1506:000 JLINK_ReadReg(R0)  returns 0x00000000 (0000ms, 22420ms total)
T2814 1506:000 JLINK_WriteMem(0x20000164, 0x029C Bytes, ...) - Data: 01 20 02 F0 DE FB 09 A9 08 20 02 F0 03 FC 9D F8 ... -- CPU_WriteMem(668 bytes @ 0x20000164)  returns 0x29C (0009ms, 22429ms total)
T2814 1506:009 JLINK_WriteMem(0x20000400, 0x0164 Bytes, ...) - Data: 88 42 01 D1 0F FA 85 F9 4D 45 15 D0 53 49 31 F8 ... -- CPU_WriteMem(356 bytes @ 0x20000400)  returns 0x164 (0005ms, 22434ms total)
T2814 1506:014 JLINK_WriteReg(R0, 0x08000C00)  returns 0x00 (0000ms, 22434ms total)
T2814 1506:014 JLINK_WriteReg(R1, 0x00000400)  returns 0x00 (0000ms, 22434ms total)
T2814 1506:014 JLINK_WriteReg(R2, 0x20000164)  returns 0x00 (0000ms, 22434ms total)
T2814 1506:014 JLINK_WriteReg(R3, 0x00000000)  returns 0x00 (0000ms, 22434ms total)
T2814 1506:014 JLINK_WriteReg(R4, 0x00000000)  returns 0x00 (0000ms, 22434ms total)
T2814 1506:014 JLINK_WriteReg(R5, 0x00000000)  returns 0x00 (0001ms, 22435ms total)
T2814 1506:015 JLINK_WriteReg(R6, 0x00000000)  returns 0x00 (0000ms, 22435ms total)
T2814 1506:015 JLINK_WriteReg(R7, 0x00000000)  returns 0x00 (0000ms, 22435ms total)
T2814 1506:015 JLINK_WriteReg(R8, 0x00000000)  returns 0x00 (0000ms, 22435ms total)
T2814 1506:015 JLINK_WriteReg(R9, 0x20000160)  returns 0x00 (0000ms, 22435ms total)
T2814 1506:015 JLINK_WriteReg(R10, 0x00000000)  returns 0x00 (0000ms, 22435ms total)
T2814 1506:015 JLINK_WriteReg(R11, 0x00000000)  returns 0x00 (0000ms, 22435ms total)
T2814 1506:015 JLINK_WriteReg(R12, 0x00000000)  returns 0x00 (0000ms, 22435ms total)
T2814 1506:015 JLINK_WriteReg(R13 (SP), 0x20001000)  returns 0x00 (0000ms, 22435ms total)
T2814 1506:015 JLINK_WriteReg(R14, 0x20000001)  returns 0x00 (0000ms, 22435ms total)
T2814 1506:015 JLINK_WriteReg(R15 (PC), 0x200000F4)  returns 0x00 (0000ms, 22435ms total)
T2814 1506:015 JLINK_WriteReg(XPSR, 0x01000000)  returns 0x00 (0000ms, 22435ms total)
T2814 1506:015 JLINK_WriteReg(MSP, 0x20001000)  returns 0x00 (0000ms, 22435ms total)
T2814 1506:015 JLINK_WriteReg(PSP, 0x20001000)  returns 0x00 (0000ms, 22435ms total)
T2814 1506:015 JLINK_WriteReg(CFBP, 0x00000000)  returns 0x00 (0000ms, 22435ms total)
T2814 1506:015 JLINK_SetBPEx(Addr = 0x20000000, Type = 0xFFFFFFF2)  returns 0x00000008 (0000ms, 22435ms total)
T2814 1506:015 JLINK_Go() -- CPU_ReadMem(4 bytes @ 0xE0001000) (0007ms, 22442ms total)
T2814 1506:022 JLINK_IsHalted()  returns FALSE (0001ms, 22443ms total)
T2814 1506:028 JLINK_IsHalted()  returns FALSE (0001ms, 22443ms total)
T2814 1506:032 JLINK_IsHalted()  returns FALSE (0001ms, 22443ms total)
T2814 1506:035 JLINK_IsHalted()  returns FALSE (0000ms, 22442ms total)
T2814 1506:039 JLINK_IsHalted()  returns FALSE (0001ms, 22443ms total)
T2814 1506:043 JLINK_IsHalted()  returns FALSE (0002ms, 22444ms total)
T2814 1506:048 JLINK_IsHalted()  returns FALSE (0001ms, 22443ms total)
T2814 1506:051 JLINK_IsHalted()  returns FALSE (0001ms, 22443ms total)
T2814 1506:055 JLINK_IsHalted() -- CPU_ReadMem(2 bytes @ 0x20000000)  returns TRUE (0007ms, 22449ms total)
T2814 1506:062 JLINK_ReadReg(R15 (PC))  returns 0x20000000 (0000ms, 22442ms total)
T2814 1506:062 JLINK_ClrBPEx(BPHandle = 0x00000008)  returns 0x00 (0000ms, 22442ms total)
T2814 1506:062 JLINK_ReadReg(R0)  returns 0x00000000 (0000ms, 22442ms total)
T2814 1506:062 JLINK_WriteMem(0x20000164, 0x029C Bytes, ...) - Data: 2D E9 F8 4F 07 46 89 46 04 25 DF F8 D0 A0 34 48 ... -- CPU_WriteMem(668 bytes @ 0x20000164)  returns 0x29C (0009ms, 22451ms total)
T2814 1506:071 JLINK_WriteMem(0x20000400, 0x0164 Bytes, ...) - Data: 0C 33 1A 60 42 79 10 2A 0E D1 1A 1F 12 68 03 68 ... -- CPU_WriteMem(356 bytes @ 0x20000400)  returns 0x164 (0004ms, 22455ms total)
T2814 1506:075 JLINK_WriteReg(R0, 0x08001000)  returns 0x00 (0000ms, 22455ms total)
T2814 1506:075 JLINK_WriteReg(R1, 0x00000400)  returns 0x00 (0000ms, 22455ms total)
T2814 1506:075 JLINK_WriteReg(R2, 0x20000164)  returns 0x00 (0000ms, 22455ms total)
T2814 1506:075 JLINK_WriteReg(R3, 0x00000000)  returns 0x00 (0000ms, 22455ms total)
T2814 1506:075 JLINK_WriteReg(R4, 0x00000000)  returns 0x00 (0000ms, 22455ms total)
T2814 1506:075 JLINK_WriteReg(R5, 0x00000000)  returns 0x00 (0000ms, 22455ms total)
T2814 1506:075 JLINK_WriteReg(R6, 0x00000000)  returns 0x00 (0000ms, 22455ms total)
T2814 1506:075 JLINK_WriteReg(R7, 0x00000000)  returns 0x00 (0000ms, 22455ms total)
T2814 1506:075 JLINK_WriteReg(R8, 0x00000000)  returns 0x00 (0000ms, 22455ms total)
T2814 1506:075 JLINK_WriteReg(R9, 0x20000160)  returns 0x00 (0000ms, 22455ms total)
T2814 1506:075 JLINK_WriteReg(R10, 0x00000000)  returns 0x00 (0000ms, 22455ms total)
T2814 1506:075 JLINK_WriteReg(R11, 0x00000000)  returns 0x00 (0000ms, 22455ms total)
T2814 1506:075 JLINK_WriteReg(R12, 0x00000000)  returns 0x00 (0000ms, 22455ms total)
T2814 1506:075 JLINK_WriteReg(R13 (SP), 0x20001000)  returns 0x00 (0000ms, 22455ms total)
T2814 1506:075 JLINK_WriteReg(R14, 0x20000001)  returns 0x00 (0000ms, 22455ms total)
T2814 1506:075 JLINK_WriteReg(R15 (PC), 0x200000F4)  returns 0x00 (0000ms, 22455ms total)
T2814 1506:075 JLINK_WriteReg(XPSR, 0x01000000)  returns 0x00 (0000ms, 22455ms total)
T2814 1506:075 JLINK_WriteReg(MSP, 0x20001000)  returns 0x00 (0000ms, 22455ms total)
T2814 1506:075 JLINK_WriteReg(PSP, 0x20001000)  returns 0x00 (0000ms, 22455ms total)
T2814 1506:075 JLINK_WriteReg(CFBP, 0x00000000)  returns 0x00 (0000ms, 22455ms total)
T2814 1506:075 JLINK_SetBPEx(Addr = 0x20000000, Type = 0xFFFFFFF2)  returns 0x00000009 (0000ms, 22455ms total)
T2814 1506:075 JLINK_Go() -- CPU_ReadMem(4 bytes @ 0xE0001000) (0008ms, 22463ms total)
T2814 1506:083 JLINK_IsHalted()  returns FALSE (0001ms, 22464ms total)
T2814 1506:087 JLINK_IsHalted()  returns FALSE (0001ms, 22464ms total)
T2814 1506:090 JLINK_IsHalted()  returns FALSE (0001ms, 22464ms total)
T2814 1506:093 JLINK_IsHalted()  returns FALSE (0000ms, 22463ms total)
T2814 1506:097 JLINK_IsHalted()  returns FALSE (0001ms, 22464ms total)
T2814 1506:099 JLINK_IsHalted()  returns FALSE (0002ms, 22465ms total)
T2814 1506:104 JLINK_IsHalted()  returns FALSE (0001ms, 22464ms total)
T2814 1506:108 JLINK_IsHalted()  returns FALSE (0001ms, 22464ms total)
T2814 1506:113 JLINK_IsHalted() -- CPU_ReadMem(2 bytes @ 0x20000000)  returns TRUE (0007ms, 22470ms total)
T2814 1506:120 JLINK_ReadReg(R15 (PC))  returns 0x20000000 (0000ms, 22463ms total)
T2814 1506:120 JLINK_ClrBPEx(BPHandle = 0x00000009)  returns 0x00 (0000ms, 22463ms total)
T2814 1506:120 JLINK_ReadReg(R0)  returns 0x00000000 (0000ms, 22463ms total)
T2814 1506:121 JLINK_WriteMem(0x20000164, 0x029C Bytes, ...) - Data: 08 4C 8D 10 44 F8 25 30 23 46 8C 10 53 F8 24 30 ... -- CPU_WriteMem(668 bytes @ 0x20000164)  returns 0x29C (0008ms, 22471ms total)
T2814 1506:129 JLINK_WriteMem(0x20000400, 0x0164 Bytes, ...) - Data: 20 02 34 4B 9A 61 62 E0 36 4A 90 42 06 D1 31 4A ... -- CPU_WriteMem(356 bytes @ 0x20000400)  returns 0x164 (0005ms, 22476ms total)
T2814 1506:134 JLINK_WriteReg(R0, 0x08001400)  returns 0x00 (0000ms, 22476ms total)
T2814 1506:134 JLINK_WriteReg(R1, 0x00000400)  returns 0x00 (0000ms, 22476ms total)
T2814 1506:134 JLINK_WriteReg(R2, 0x20000164)  returns 0x00 (0000ms, 22476ms total)
T2814 1506:134 JLINK_WriteReg(R3, 0x00000000)  returns 0x00 (0000ms, 22476ms total)
T2814 1506:134 JLINK_WriteReg(R4, 0x00000000)  returns 0x00 (0000ms, 22476ms total)
T2814 1506:134 JLINK_WriteReg(R5, 0x00000000)  returns 0x00 (0000ms, 22476ms total)
T2814 1506:134 JLINK_WriteReg(R6, 0x00000000)  returns 0x00 (0000ms, 22476ms total)
T2814 1506:134 JLINK_WriteReg(R7, 0x00000000)  returns 0x00 (0000ms, 22476ms total)
T2814 1506:134 JLINK_WriteReg(R8, 0x00000000)  returns 0x00 (0000ms, 22476ms total)
T2814 1506:134 JLINK_WriteReg(R9, 0x20000160)  returns 0x00 (0000ms, 22476ms total)
T2814 1506:134 JLINK_WriteReg(R10, 0x00000000)  returns 0x00 (0000ms, 22476ms total)
T2814 1506:134 JLINK_WriteReg(R11, 0x00000000)  returns 0x00 (0000ms, 22476ms total)
T2814 1506:134 JLINK_WriteReg(R12, 0x00000000)  returns 0x00 (0000ms, 22476ms total)
T2814 1506:134 JLINK_WriteReg(R13 (SP), 0x20001000)  returns 0x00 (0000ms, 22476ms total)
T2814 1506:134 JLINK_WriteReg(R14, 0x20000001)  returns 0x00 (0000ms, 22476ms total)
T2814 1506:134 JLINK_WriteReg(R15 (PC), 0x200000F4)  returns 0x00 (0000ms, 22476ms total)
T2814 1506:134 JLINK_WriteReg(XPSR, 0x01000000)  returns 0x00 (0000ms, 22476ms total)
T2814 1506:134 JLINK_WriteReg(MSP, 0x20001000)  returns 0x00 (0000ms, 22476ms total)
T2814 1506:134 JLINK_WriteReg(PSP, 0x20001000)  returns 0x00 (0000ms, 22476ms total)
T2814 1506:134 JLINK_WriteReg(CFBP, 0x00000000)  returns 0x00 (0000ms, 22476ms total)
T2814 1506:134 JLINK_SetBPEx(Addr = 0x20000000, Type = 0xFFFFFFF2)  returns 0x0000000A (0000ms, 22476ms total)
T2814 1506:134 JLINK_Go() -- CPU_ReadMem(4 bytes @ 0xE0001000) (0008ms, 22484ms total)
T2814 1506:142 JLINK_IsHalted()  returns FALSE (0000ms, 22484ms total)
T2814 1506:147 JLINK_IsHalted()  returns FALSE (0000ms, 22484ms total)
T2814 1506:149 JLINK_IsHalted()  returns FALSE (0000ms, 22484ms total)
T2814 1506:151 JLINK_IsHalted()  returns FALSE (0000ms, 22484ms total)
T2814 1506:154 JLINK_IsHalted()  returns FALSE (0000ms, 22484ms total)
T2814 1506:156 JLINK_IsHalted()  returns FALSE (0000ms, 22484ms total)
T2814 1506:159 JLINK_IsHalted()  returns FALSE (0000ms, 22484ms total)
T2814 1506:161 JLINK_IsHalted()  returns FALSE (0000ms, 22484ms total)
T2814 1506:163 JLINK_IsHalted()  returns FALSE (0000ms, 22484ms total)
T2814 1506:167 JLINK_IsHalted()  returns FALSE (0001ms, 22485ms total)
T2814 1506:170 JLINK_IsHalted()  returns FALSE (0000ms, 22484ms total)
T2814 1506:172 JLINK_IsHalted() -- CPU_ReadMem(2 bytes @ 0x20000000)  returns TRUE (0006ms, 22490ms total)
T2814 1506:178 JLINK_ReadReg(R15 (PC))  returns 0x20000000 (0000ms, 22484ms total)
T2814 1506:178 JLINK_ClrBPEx(BPHandle = 0x0000000A)  returns 0x00 (0000ms, 22484ms total)
T2814 1506:178 JLINK_ReadReg(R0)  returns 0x00000000 (0000ms, 22484ms total)
T2814 1506:180 JLINK_WriteMem(0x20000164, 0x029C Bytes, ...) - Data: 00 F0 1C F8 00 F0 04 F8 10 BD 00 00 00 08 01 40 ... -- CPU_WriteMem(668 bytes @ 0x20000164)  returns 0x29C (0008ms, 22492ms total)
T2814 1506:188 JLINK_WriteMem(0x20000400, 0x0164 Bytes, ...) - Data: 72 65 63 76 66 72 6F 6D 20 65 72 72 6F 72 2E 20 ... -- CPU_WriteMem(356 bytes @ 0x20000400)  returns 0x164 (0005ms, 22497ms total)
T2814 1506:193 JLINK_WriteReg(R0, 0x08001800)  returns 0x00 (0000ms, 22497ms total)
T2814 1506:193 JLINK_WriteReg(R1, 0x00000400)  returns 0x00 (0000ms, 22497ms total)
T2814 1506:193 JLINK_WriteReg(R2, 0x20000164)  returns 0x00 (0000ms, 22497ms total)
T2814 1506:193 JLINK_WriteReg(R3, 0x00000000)  returns 0x00 (0000ms, 22497ms total)
T2814 1506:193 JLINK_WriteReg(R4, 0x00000000)  returns 0x00 (0000ms, 22497ms total)
T2814 1506:193 JLINK_WriteReg(R5, 0x00000000)  returns 0x00 (0000ms, 22497ms total)
T2814 1506:193 JLINK_WriteReg(R6, 0x00000000)  returns 0x00 (0000ms, 22497ms total)
T2814 1506:193 JLINK_WriteReg(R7, 0x00000000)  returns 0x00 (0000ms, 22497ms total)
T2814 1506:193 JLINK_WriteReg(R8, 0x00000000)  returns 0x00 (0000ms, 22497ms total)
T2814 1506:193 JLINK_WriteReg(R9, 0x20000160)  returns 0x00 (0000ms, 22497ms total)
T2814 1506:193 JLINK_WriteReg(R10, 0x00000000)  returns 0x00 (0002ms, 22499ms total)
T2814 1506:195 JLINK_WriteReg(R11, 0x00000000)  returns 0x00 (0000ms, 22499ms total)
T2814 1506:195 JLINK_WriteReg(R12, 0x00000000)  returns 0x00 (0000ms, 22499ms total)
T2814 1506:195 JLINK_WriteReg(R13 (SP), 0x20001000)  returns 0x00 (0000ms, 22499ms total)
T2814 1506:195 JLINK_WriteReg(R14, 0x20000001)  returns 0x00 (0000ms, 22499ms total)
T2814 1506:195 JLINK_WriteReg(R15 (PC), 0x200000F4)  returns 0x00 (0000ms, 22499ms total)
T2814 1506:195 JLINK_WriteReg(XPSR, 0x01000000)  returns 0x00 (0000ms, 22499ms total)
T2814 1506:195 JLINK_WriteReg(MSP, 0x20001000)  returns 0x00 (0000ms, 22499ms total)
T2814 1506:195 JLINK_WriteReg(PSP, 0x20001000)  returns 0x00 (0000ms, 22499ms total)
T2814 1506:195 JLINK_WriteReg(CFBP, 0x00000000)  returns 0x00 (0000ms, 22499ms total)
T2814 1506:195 JLINK_SetBPEx(Addr = 0x20000000, Type = 0xFFFFFFF2)  returns 0x0000000B (0001ms, 22500ms total)
T2814 1506:196 JLINK_Go() -- CPU_ReadMem(4 bytes @ 0xE0001000) (0007ms, 22507ms total)
T2814 1506:203 JLINK_IsHalted()  returns FALSE (0001ms, 22508ms total)
T2814 1506:210 JLINK_IsHalted()  returns FALSE (0001ms, 22508ms total)
T2814 1506:218 JLINK_IsHalted()  returns FALSE (0001ms, 22508ms total)
T2814 1506:221 JLINK_IsHalted()  returns FALSE (0001ms, 22508ms total)
T2814 1506:224 JLINK_IsHalted()  returns FALSE (0001ms, 22508ms total)
T2814 1506:227 JLINK_IsHalted()  returns FALSE (0001ms, 22508ms total)
T2814 1506:240 JLINK_IsHalted() -- CPU_ReadMem(2 bytes @ 0x20000000)  returns TRUE (0007ms, 22514ms total)
T2814 1506:247 JLINK_ReadReg(R15 (PC))  returns 0x20000000 (0000ms, 22507ms total)
T2814 1506:247 JLINK_ClrBPEx(BPHandle = 0x0000000B)  returns 0x00 (0000ms, 22507ms total)
T2814 1506:247 JLINK_ReadReg(R0)  returns 0x00000000 (0000ms, 22507ms total)
T2814 1506:249 JLINK_WriteMem(0x20000164, 0x029C Bytes, ...) - Data: 08 20 01 21 21 B1 01 22 82 40 06 4B 1A 61 05 E0 ... -- CPU_WriteMem(668 bytes @ 0x20000164)  returns 0x29C (0007ms, 22514ms total)
T2814 1506:257 JLINK_WriteMem(0x20000400, 0x0164 Bytes, ...) - Data: 2E 25 64 2E 25 64 0D 0A 00 00 00 00 92 07 00 20 ... -- CPU_WriteMem(356 bytes @ 0x20000400)  returns 0x164 (0005ms, 22519ms total)
T2814 1506:262 JLINK_WriteReg(R0, 0x08001C00)  returns 0x00 (0000ms, 22519ms total)
T2814 1506:262 JLINK_WriteReg(R1, 0x00000400)  returns 0x00 (0000ms, 22519ms total)
T2814 1506:262 JLINK_WriteReg(R2, 0x20000164)  returns 0x00 (0000ms, 22519ms total)
T2814 1506:262 JLINK_WriteReg(R3, 0x00000000)  returns 0x00 (0000ms, 22519ms total)
T2814 1506:262 JLINK_WriteReg(R4, 0x00000000)  returns 0x00 (0000ms, 22519ms total)
T2814 1506:262 JLINK_WriteReg(R5, 0x00000000)  returns 0x00 (0000ms, 22519ms total)
T2814 1506:262 JLINK_WriteReg(R6, 0x00000000)  returns 0x00 (0000ms, 22519ms total)
T2814 1506:262 JLINK_WriteReg(R7, 0x00000000)  returns 0x00 (0000ms, 22519ms total)
T2814 1506:262 JLINK_WriteReg(R8, 0x00000000)  returns 0x00 (0000ms, 22519ms total)
T2814 1506:262 JLINK_WriteReg(R9, 0x20000160)  returns 0x00 (0000ms, 22519ms total)
T2814 1506:262 JLINK_WriteReg(R10, 0x00000000)  returns 0x00 (0000ms, 22519ms total)
T2814 1506:262 JLINK_WriteReg(R11, 0x00000000)  returns 0x00 (0000ms, 22519ms total)
T2814 1506:262 JLINK_WriteReg(R12, 0x00000000)  returns 0x00 (0000ms, 22519ms total)
T2814 1506:262 JLINK_WriteReg(R13 (SP), 0x20001000)  returns 0x00 (0000ms, 22519ms total)
T2814 1506:262 JLINK_WriteReg(R14, 0x20000001)  returns 0x00 (0001ms, 22520ms total)
T2814 1506:263 JLINK_WriteReg(R15 (PC), 0x200000F4)  returns 0x00 (0000ms, 22520ms total)
T2814 1506:263 JLINK_WriteReg(XPSR, 0x01000000)  returns 0x00 (0000ms, 22520ms total)
T2814 1506:263 JLINK_WriteReg(MSP, 0x20001000)  returns 0x00 (0000ms, 22520ms total)
T2814 1506:263 JLINK_WriteReg(PSP, 0x20001000)  returns 0x00 (0000ms, 22520ms total)
T2814 1506:263 JLINK_WriteReg(CFBP, 0x00000000)  returns 0x00 (0000ms, 22520ms total)
T2814 1506:263 JLINK_SetBPEx(Addr = 0x20000000, Type = 0xFFFFFFF2)  returns 0x0000000C (0000ms, 22520ms total)
T2814 1506:263 JLINK_Go() -- CPU_ReadMem(4 bytes @ 0xE0001000) (0007ms, 22527ms total)
T2814 1506:270 JLINK_IsHalted()  returns FALSE (0001ms, 22528ms total)
T2814 1506:273 JLINK_IsHalted()  returns FALSE (0001ms, 22528ms total)
T2814 1506:276 JLINK_IsHalted()  returns FALSE (0001ms, 22528ms total)
T2814 1506:279 JLINK_IsHalted()  returns FALSE (0001ms, 22528ms total)
T2814 1506:282 JLINK_IsHalted()  returns FALSE (0001ms, 22528ms total)
T2814 1506:287 JLINK_IsHalted()  returns FALSE (0001ms, 22529ms total)
T2814 1506:290 JLINK_IsHalted()  returns FALSE (0001ms, 22529ms total)
T2814 1506:295 JLINK_IsHalted()  returns FALSE (0001ms, 22529ms total)
T2814 1506:298 JLINK_IsHalted()  returns FALSE (0001ms, 22529ms total)
T2814 1506:301 JLINK_IsHalted() -- CPU_ReadMem(2 bytes @ 0x20000000)  returns TRUE (0006ms, 22534ms total)
T2814 1506:307 JLINK_ReadReg(R15 (PC))  returns 0x20000000 (0000ms, 22528ms total)
T2814 1506:307 JLINK_ClrBPEx(BPHandle = 0x0000000C)  returns 0x00 (0000ms, 22528ms total)
T2814 1506:307 JLINK_ReadReg(R0)  returns 0x00000000 (0000ms, 22528ms total)
T2814 1506:308 JLINK_WriteMem(0x20000164, 0x029C Bytes, ...) - Data: 72 74 20 5B 25 64 5D 0D 0A 00 00 00 00 B5 87 B0 ... -- CPU_WriteMem(668 bytes @ 0x20000164)  returns 0x29C (0008ms, 22536ms total)
T2814 1506:316 JLINK_WriteMem(0x20000400, 0x0164 Bytes, ...) - Data: 10 BD 00 00 00 10 02 40 00 12 7A 00 14 06 00 20 ... -- CPU_WriteMem(356 bytes @ 0x20000400)  returns 0x164 (0006ms, 22542ms total)
T2814 1506:322 JLINK_WriteReg(R0, 0x08002000)  returns 0x00 (0000ms, 22542ms total)
T2814 1506:322 JLINK_WriteReg(R1, 0x00000400)  returns 0x00 (0000ms, 22542ms total)
T2814 1506:322 JLINK_WriteReg(R2, 0x20000164)  returns 0x00 (0000ms, 22542ms total)
T2814 1506:322 JLINK_WriteReg(R3, 0x00000000)  returns 0x00 (0000ms, 22542ms total)
T2814 1506:322 JLINK_WriteReg(R4, 0x00000000)  returns 0x00 (0000ms, 22542ms total)
T2814 1506:322 JLINK_WriteReg(R5, 0x00000000)  returns 0x00 (0000ms, 22542ms total)
T2814 1506:322 JLINK_WriteReg(R6, 0x00000000)  returns 0x00 (0000ms, 22542ms total)
T2814 1506:322 JLINK_WriteReg(R7, 0x00000000)  returns 0x00 (0000ms, 22542ms total)
T2814 1506:322 JLINK_WriteReg(R8, 0x00000000)  returns 0x00 (0000ms, 22542ms total)
T2814 1506:322 JLINK_WriteReg(R9, 0x20000160)  returns 0x00 (0000ms, 22542ms total)
T2814 1506:322 JLINK_WriteReg(R10, 0x00000000)  returns 0x00 (0000ms, 22542ms total)
T2814 1506:322 JLINK_WriteReg(R11, 0x00000000)  returns 0x00 (0000ms, 22542ms total)
T2814 1506:322 JLINK_WriteReg(R12, 0x00000000)  returns 0x00 (0000ms, 22542ms total)
T2814 1506:322 JLINK_WriteReg(R13 (SP), 0x20001000)  returns 0x00 (0000ms, 22542ms total)
T2814 1506:322 JLINK_WriteReg(R14, 0x20000001)  returns 0x00 (0001ms, 22543ms total)
T2814 1506:323 JLINK_WriteReg(R15 (PC), 0x200000F4)  returns 0x00 (0000ms, 22543ms total)
T2814 1506:323 JLINK_WriteReg(XPSR, 0x01000000)  returns 0x00 (0000ms, 22543ms total)
T2814 1506:323 JLINK_WriteReg(MSP, 0x20001000)  returns 0x00 (0000ms, 22543ms total)
T2814 1506:323 JLINK_WriteReg(PSP, 0x20001000)  returns 0x00 (0000ms, 22543ms total)
T2814 1506:323 JLINK_WriteReg(CFBP, 0x00000000)  returns 0x00 (0000ms, 22543ms total)
T2814 1506:323 JLINK_SetBPEx(Addr = 0x20000000, Type = 0xFFFFFFF2)  returns 0x0000000D (0000ms, 22543ms total)
T2814 1506:323 JLINK_Go() -- CPU_ReadMem(4 bytes @ 0xE0001000) (0007ms, 22550ms total)
T2814 1506:330 JLINK_IsHalted()  returns FALSE (0002ms, 22552ms total)
T2814 1506:334 JLINK_IsHalted()  returns FALSE (0001ms, 22551ms total)
T2814 1506:337 JLINK_IsHalted()  returns FALSE (0001ms, 22551ms total)
T2814 1506:342 JLINK_IsHalted()  returns FALSE (0001ms, 22551ms total)
T2814 1506:345 JLINK_IsHalted()  returns FALSE (0001ms, 22551ms total)
T2814 1506:348 JLINK_IsHalted()  returns FALSE (0001ms, 22551ms total)
T2814 1506:351 JLINK_IsHalted()  returns FALSE (0001ms, 22551ms total)
T2814 1506:354 JLINK_IsHalted()  returns FALSE (0001ms, 22551ms total)
T2814 1506:359 JLINK_IsHalted()  returns FALSE (0002ms, 22552ms total)
T2814 1506:363 JLINK_IsHalted() -- CPU_ReadMem(2 bytes @ 0x20000000)  returns TRUE (0008ms, 22558ms total)
T2814 1506:371 JLINK_ReadReg(R15 (PC))  returns 0x20000000 (0000ms, 22550ms total)
T2814 1506:371 JLINK_ClrBPEx(BPHandle = 0x0000000D)  returns 0x00 (0000ms, 22550ms total)
T2814 1506:371 JLINK_ReadReg(R0)  returns 0x00000000 (0000ms, 22550ms total)
T2814 1506:372 JLINK_WriteMem(0x20000164, 0x029C Bytes, ...) - Data: 15 8A 05 EA 01 03 95 89 05 EA 01 04 13 B1 0C B1 ... -- CPU_WriteMem(668 bytes @ 0x20000164)  returns 0x29C (0008ms, 22558ms total)
T2814 1506:380 JLINK_WriteMem(0x20000400, 0x0164 Bytes, ...) - Data: 00 44 00 40 18 00 00 20 21 B1 82 89 42 F4 00 52 ... -- CPU_WriteMem(356 bytes @ 0x20000400)  returns 0x164 (0005ms, 22563ms total)
T2814 1506:385 JLINK_WriteReg(R0, 0x08002400)  returns 0x00 (0000ms, 22563ms total)
T2814 1506:385 JLINK_WriteReg(R1, 0x00000400)  returns 0x00 (0000ms, 22563ms total)
T2814 1506:385 JLINK_WriteReg(R2, 0x20000164)  returns 0x00 (0000ms, 22563ms total)
T2814 1506:385 JLINK_WriteReg(R3, 0x00000000)  returns 0x00 (0000ms, 22563ms total)
T2814 1506:385 JLINK_WriteReg(R4, 0x00000000)  returns 0x00 (0000ms, 22563ms total)
T2814 1506:385 JLINK_WriteReg(R5, 0x00000000)  returns 0x00 (0000ms, 22563ms total)
T2814 1506:385 JLINK_WriteReg(R6, 0x00000000)  returns 0x00 (0000ms, 22563ms total)
T2814 1506:385 JLINK_WriteReg(R7, 0x00000000)  returns 0x00 (0000ms, 22563ms total)
T2814 1506:385 JLINK_WriteReg(R8, 0x00000000)  returns 0x00 (0000ms, 22563ms total)
T2814 1506:385 JLINK_WriteReg(R9, 0x20000160)  returns 0x00 (0000ms, 22563ms total)
T2814 1506:385 JLINK_WriteReg(R10, 0x00000000)  returns 0x00 (0000ms, 22563ms total)
T2814 1506:385 JLINK_WriteReg(R11, 0x00000000)  returns 0x00 (0000ms, 22563ms total)
